
T2F20 001:329 SEGGER J-Link V6.44a Log File (0001ms, 0058ms total)
T2F20 001:329 DLL Compiled: Mar  8 2019 17:31:48 (0001ms, 0058ms total)
T2F20 001:329 Logging started @ 2026-09-24 16:46 (0002ms, 0059ms total)
T2F20 001:331 JLINK_SetWarnOutHandler(...) (0000ms, 0059ms total)
T2F20 001:331 JLINK_OpenEx(...)
Firmware: J-Link ARM-OB STM32 compiled Aug 22 2012 19:52:04
Hardware: V7.00
S/N: 20090928
Feature(s): RDI,FlashDL,FlashBP,JFlash,GDBFull
TELNET listener socket opened on port 19021WEBSRV 
Starting webserver (0018ms, 0077ms total)
T2F20 001:331 WEBSRV Webserver running on local port 19080 (0018ms, 0077ms total)
T2F20 001:331   returns O.K. (0018ms, 0077ms total)
T2F20 001:349 JLINK_GetEmuCaps()  returns 0x88EA5833 (0000ms, 0077ms total)
T2F20 001:349 JLINK_TIF_GetAvailable(...) (0001ms, 0078ms total)
T2F20 001:350 JLINK_SetErrorOutHandler(...) (0000ms, 0078ms total)
T2F20 001:350 JLINK_ExecCommand("ProjectFile = "C:\Users\1\Desktop\STM32F407CAN\JLinkSettings.ini"", ...).   returns 0x00 (0007ms, 0085ms total)
T2F20 001:568 JLINK_ExecCommand("Device = STM32F407ZE", ...). Device "STM32F407ZE" selected.  returns 0x00 (0009ms, 0094ms total)
T2F20 001:577 JLINK_ExecCommand("DisableConnectionTimeout", ...).   returns 0x01 (0000ms, 0094ms total)
T2F20 001:577 JLINK_GetHardwareVersion()  returns 0x11170 (0000ms, 0094ms total)
T2F20 001:577 JLINK_GetDLLVersion()  returns 64401 (0000ms, 0094ms total)
T2F20 001:577 JLINK_GetFirmwareString(...) (0000ms, 0094ms total)
T2F20 001:597 JLINK_GetDLLVersion()  returns 64401 (0000ms, 0094ms total)
T2F20 001:597 JLINK_GetCompileDateTime() (0000ms, 0094ms total)
T2F20 001:604 JLINK_GetFirmwareString(...) (0000ms, 0094ms total)
T2F20 001:614 JLINK_GetHardwareVersion()  returns 0x11170 (0000ms, 0094ms total)
T2F20 001:645 JLINK_TIF_Select(JLINKARM_TIF_SWD)  returns 0x00 (0001ms, 0095ms total)
T2F20 001:646 JLINK_SetSpeed(5000) (0000ms, 0095ms total)
T2F20 001:647 JLINK_GetId() >0x10B TIF>Found SW-DP with ID 0x2BA01477 >0x0D TIF> >0x28 TIF> >0x0D TIF> >0x28 TIF> >0x0D TIF> >0x28 TIF> >0x0D TIF> >0x28 TIF> >0x0D TIF> >0x21 TIF> >0x0D TIF> >0x28 TIF> >0x0D TIF> >0x28 TIF> >0x0D TIF> >0x28 TIF> >0x0D TIF> >0x21 TIF> >0x0D TIF> >0x21 TIF> >0x0D TIF> >0x28 TIF> >0x0D TIF> >0x21 TIF> >0x0D TIF> >0x21 TIF> >0x0D TIF> >0x28 TIF> >0x0D TIF> >0x21 TIF> >0x0D TIF> >0x21 TIF> >0x0D TIF> >0x28 TIF> >0x0D TIF> >0x21 TIF> >0x0D TIF> >0x21 TIF> >0x0D TIF> >0x28 TIF>
 >0x0D TIF> >0x21 TIF> >0x0D TIF> >0x21 TIF> >0x0D TIF> >0x28 TIF> >0x0D TIF> >0x21 TIF> >0x0D TIF> >0x21 TIF> >0x10B TIF>Found SW-DP with ID 0x2BA01477 >0x0D TIF> >0x28 TIF> >0x0D TIF> >0x28 TIF> >0x0D TIF> >0x28 TIF> >0x0D TIF> >0x28 TIF> >0x0D TIF> >0x21 TIF> >0x0D TIF> >0x28 TIF>Scanning AP map to find all available APs >0x0D TIF> >0x28 TIF> >0x0D TIF> >0x21 TIF> >0x0D TIF> >0x21 TIF> >0x0D TIF> >0x28 TIF> >0x0D TIF> >0x21 TIF> >0x0D TIF> >0x21 TIF>
AP[1]: Stopped AP scan as end of AP map has been reachedAP[0]: AHB-AP (IDR: 0x24770011)Iterating through AP map to find AHB-AP to use >0x42 TIF> >0x28 TIF> >0x0D TIF> >0x28 TIF> >0x0D TIF> >0x21 TIF> >0x0D TIF> >0x21 TIF> >0x42 TIF> >0x28 TIF> >0x0D TIF> >0x28 TIF> >0x0D TIF> >0x28 TIF> >0x0D TIF> >0x21 TIF> >0x0D TIF> >0x21 TIF>AP[0]: Core foundAP[0]: AHB-AP ROM base: 0xE00FF000 >0x0D TIF> >0x28 TIF> >0x0D TIF> >0x28 TIF> >0x0D TIF> >0x28 TIF> >0x0D TIF> >0x21 TIF> >0x0D TIF> >0x21 TIF>
CPUID register: 0x410FC241. Implementer code: 0x41 (ARM)Found Cortex-M4 r0p1, Little endian. -- Max. mem block: 0x00002C18 -- CPU_ReadMem(4 bytes @ 0xE000EDF0) -- CPU_WriteMem(4 bytes @ 0xE000EDF0) -- CPU_ReadMem(4 bytes @ 0xE0002000)FPUnit: 6 code (BP) slots and 2 literal slots -- CPU_ReadMem(4 bytes @ 0xE000EDFC) -- CPU_WriteMem(4 bytes @ 0xE000EDFC) -- CPU_ReadMem(4 bytes @ 0xE0001000) -- CPU_WriteMem(4 bytes @ 0xE0001000) -- CPU_ReadMem(4 bytes @ 0xE000ED88) -- CPU_WriteMem(4 bytes @ 0xE000ED88)
 -- CPU_ReadMem(4 bytes @ 0xE000ED88) -- CPU_WriteMem(4 bytes @ 0xE000ED88)CoreSight components:ROMTbl[0] @ E00FF000 -- CPU_ReadMem(16 bytes @ 0xE00FF000) -- CPU_ReadMem(16 bytes @ 0xE000EFF0) -- CPU_ReadMem(16 bytes @ 0xE000EFE0)ROMTbl[0][0]: E000E000, CID: B105E00D, PID: 000BB00C SCS-M7 -- CPU_ReadMem(16 bytes @ 0xE0001FF0) -- CPU_ReadMem(16 bytes @ 0xE0001FE0)ROMTbl[0][1]: E0001000, CID: B105E00D, PID: 003BB002 DWT -- CPU_ReadMem(16 bytes @ 0xE0002FF0) -- CPU_ReadMem(16 bytes @ 0xE0002FE0)
ROMTbl[0][2]: E0002000, CID: B105E00D, PID: 002BB003 FPB -- CPU_ReadMem(16 bytes @ 0xE0000FF0) -- CPU_ReadMem(16 bytes @ 0xE0000FE0)ROMTbl[0][3]: E0000000, CID: B105E00D, PID: 003BB001 ITM -- CPU_ReadMem(16 bytes @ 0xE00FF010) -- CPU_ReadMem(16 bytes @ 0xE0040FF0) -- CPU_ReadMem(16 bytes @ 0xE0040FE0)ROMTbl[0][4]: E0040000, CID: B105900D, PID: 000BB9A1 TPIU -- CPU_ReadMem(16 bytes @ 0xE0041FF0) -- CPU_ReadMem(16 bytes @ 0xE0041FE0)ROMTbl[0][5]: E0041000, CID: B105900D, PID: 000BB925 ETM >0x0D TIF>
 >0x21 TIF>  returns 0x2BA01477 (0424ms, 0519ms total)
T2F20 002:071 JLINK_GetDLLVersion()  returns 64401 (0000ms, 0519ms total)
T2F20 002:071 JLINK_CORE_GetFound()  returns 0xE0000FF (0000ms, 0519ms total)
T2F20 002:071 JLINK_GetDebugInfo(0x100 = JLINKARM_ROM_TABLE_ADDR_INDEX) -- Value=0xE00FF000  returns 0x00 (0000ms, 0519ms total)
T2F20 002:080 JLINK_GetDebugInfo(0x100 = JLINKARM_ROM_TABLE_ADDR_INDEX) -- Value=0xE00FF000  returns 0x00 (0000ms, 0519ms total)
T2F20 002:080 JLINK_GetDebugInfo(0x101 = JLINKARM_DEBUG_INFO_ETM_ADDR_INDEX) -- Value=0xE0041000  returns 0x00 (0000ms, 0519ms total)
T2F20 002:080 JLINK_ReadMemEx(0xE0041FD0, 0x0020 Bytes, ..., Flags = 0x02000004) -- CPU_ReadMem(32 bytes @ 0xE0041FD0) - Data: 04 00 00 00 00 00 00 00 00 00 00 00 00 00 00 00 ...  returns 0x20 (0002ms, 0521ms total)
T2F20 002:082 JLINK_GetDebugInfo(0x102 = JLINKARM_DEBUG_INFO_MTB_ADDR_INDEX) -- Value=0x00000000  returns 0x00 (0000ms, 0521ms total)
T2F20 002:082 JLINK_GetDebugInfo(0x103 = JLINKARM_DEBUG_INFO_TPIU_ADDR_INDEX) -- Value=0xE0040000  returns 0x00 (0000ms, 0521ms total)
T2F20 002:082 JLINK_GetDebugInfo(0x104 = JLINKARM_DEBUG_INFO_ITM_ADDR_INDEX) -- Value=0xE0000000  returns 0x00 (0000ms, 0521ms total)
T2F20 002:082 JLINK_GetDebugInfo(0x105 = JLINKARM_DEBUG_INFO_DWT_ADDR_INDEX) -- Value=0xE0001000  returns 0x00 (0000ms, 0521ms total)
T2F20 002:082 JLINK_GetDebugInfo(0x106 = JLINKARM_DEBUG_INFO_FPB_ADDR_INDEX) -- Value=0xE0002000  returns 0x00 (0000ms, 0521ms total)
T2F20 002:082 JLINK_GetDebugInfo(0x107 = JLINKARM_DEBUG_INFO_NVIC_ADDR_INDEX) -- Value=0xE000E000  returns 0x00 (0000ms, 0521ms total)
T2F20 002:082 JLINK_GetDebugInfo(0x10C = JLINKARM_DEBUG_INFO_DBG_ADDR_INDEX) -- Value=0xE000EDF0  returns 0x00 (0000ms, 0521ms total)
T2F20 002:082 JLINK_GetDebugInfo(0x01 = Unknown) -- Value=0x00000001  returns 0x00 (0001ms, 0522ms total)
T2F20 002:083 JLINK_ReadMemU32(0xE000ED00, 0x0001 Items, ...) -- CPU_ReadMem(4 bytes @ 0xE000ED00) - Data: 41 C2 0F 41  returns 1 (0000ms, 0522ms total)
T2F20 002:083 JLINK_GetDebugInfo(0x10F = JLINKARM_DEBUG_INFO_HAS_CORTEX_M_SECURITY_EXT_INDEX) -- Value=0x00000000  returns 0x00 (0000ms, 0522ms total)
T2F20 002:083 JLINK_SetResetType(JLINKARM_CM3_RESET_TYPE_NORMAL)  returns JLINKARM_CM3_RESET_TYPE_NORMAL (0000ms, 0522ms total)
T2F20 002:083 JLINK_Reset() -- CPU is running -- CPU_WriteMem(4 bytes @ 0xE000EDF0) -- CPU is running -- CPU_WriteMem(4 bytes @ 0xE000EDFC)Reset: Halt core after reset via DEMCR.VC_CORERESET. >0x35 TIF>Reset: Reset device via AIRCR.SYSRESETREQ. -- CPU is running -- CPU_WriteMem(4 bytes @ 0xE000ED0C) >0x0D TIF> >0x28 TIF> -- CPU_ReadMem(4 bytes @ 0xE000EDF0) -- CPU_ReadMem(4 bytes @ 0xE000EDF0) -- CPU is running -- CPU_WriteMem(4 bytes @ 0xE000EDF0) -- CPU is running -- CPU_WriteMem(4 bytes @ 0xE000EDFC)
 -- CPU_ReadMem(4 bytes @ 0xE000EDF0) -- CPU_WriteMem(4 bytes @ 0xE0002000) -- CPU_ReadMem(4 bytes @ 0xE000EDFC) -- CPU_ReadMem(4 bytes @ 0xE0001000) (0099ms, 0621ms total)
T2F20 002:182 JLINK_Halt()  returns 0x00 (0000ms, 0621ms total)
T2F20 002:182 JLINK_ReadMemU32(0xE000EDF0, 0x0001 Items, ...) -- CPU_ReadMem(4 bytes @ 0xE000EDF0) - Data: 03 00 03 00  returns 1 (0001ms, 0622ms total)
T2F20 002:183 JLINK_WriteU32(0xE000EDF0, 0xA05F0003) -- CPU_WriteMem(4 bytes @ 0xE000EDF0)  returns 0 (0001ms, 0623ms total)
T2F20 002:184 JLINK_WriteU32(0xE000EDFC, 0x01000000) -- CPU_WriteMem(4 bytes @ 0xE000EDFC)  returns 0 (0000ms, 0623ms total)
T2F20 002:273 JLINK_GetHWStatus(...)  returns 0x00 (0001ms, 0624ms total)
T2F20 002:298 JLINK_GetNumBPUnits(Type = 0xFFFFFF00)  returns 0x06 (0000ms, 0624ms total)
T2F20 002:298 JLINK_GetNumBPUnits(Type = 0xF0)  returns 0x2000 (0000ms, 0624ms total)
T2F20 002:298 JLINK_GetNumWPUnits()  returns 0x04 (0000ms, 0624ms total)
T2F20 002:323 JLINK_GetSpeed()  returns 0xFA0 (0000ms, 0624ms total)
T2F20 002:418 JLINK_ReadMemU32(0xE000E004, 0x0001 Items, ...) -- CPU_ReadMem(4 bytes @ 0xE000E004) - Data: 02 00 00 00  returns 1 (0001ms, 0625ms total)
T2F20 002:419 JLINK_ReadMemU32(0xE000E004, 0x0001 Items, ...) -- CPU_ReadMem(4 bytes @ 0xE000E004) - Data: 02 00 00 00  returns 1 (0000ms, 0625ms total)
T2F20 002:419 JLINK_WriteMemEx(0xE0001000, 0x001C Bytes, ..., Flags = 0x02000004) - Data: 01 00 00 00 00 00 00 00 00 00 00 00 00 00 00 00 ... -- CPU_WriteMem(28 bytes @ 0xE0001000)  returns 0x1C (0002ms, 0627ms total)
T2F20 002:421 JLINK_Halt()  returns 0x00 (0000ms, 0627ms total)
T2F20 002:421 JLINK_IsHalted()  returns TRUE (0000ms, 0627ms total)
T2F20 002:432 JLINK_WriteMem(0x20000000, 0x0180 Bytes, ...) - Data: 00 BE 0A E0 0D 78 2D 06 68 40 08 24 40 00 00 D3 ... -- CPU_WriteMem(384 bytes @ 0x20000000)  returns 0x180 (0005ms, 0632ms total)
T2F20 002:437 JLINK_WriteReg(R0, 0x08000000)  returns 0x00 (0000ms, 0632ms total)
T2F20 002:437 JLINK_WriteReg(R1, 0x00B71B00)  returns 0x00 (0000ms, 0632ms total)
T2F20 002:437 JLINK_WriteReg(R2, 0x00000001)  returns 0x00 (0000ms, 0632ms total)
T2F20 002:437 JLINK_WriteReg(R3, 0x00000000)  returns 0x00 (0000ms, 0632ms total)
T2F20 002:437 JLINK_WriteReg(R4, 0x00000000)  returns 0x00 (0000ms, 0632ms total)
T2F20 002:437 JLINK_WriteReg(R5, 0x00000000)  returns 0x00 (0000ms, 0632ms total)
T2F20 002:437 JLINK_WriteReg(R6, 0x00000000)  returns 0x00 (0000ms, 0632ms total)
T2F20 002:437 JLINK_WriteReg(R7, 0x00000000)  returns 0x00 (0000ms, 0632ms total)
T2F20 002:437 JLINK_WriteReg(R8, 0x00000000)  returns 0x00 (0000ms, 0632ms total)
T2F20 002:437 JLINK_WriteReg(R9, 0x2000017C)  returns 0x00 (0000ms, 0632ms total)
T2F20 002:437 JLINK_WriteReg(R10, 0x00000000)  returns 0x00 (0000ms, 0632ms total)
T2F20 002:437 JLINK_WriteReg(R11, 0x00000000)  returns 0x00 (0000ms, 0632ms total)
T2F20 002:437 JLINK_WriteReg(R12, 0x00000000)  returns 0x00 (0000ms, 0632ms total)
T2F20 002:437 JLINK_WriteReg(R13 (SP), 0x20001000)  returns 0x00 (0000ms, 0632ms total)
T2F20 002:437 JLINK_WriteReg(R14, 0x20000001)  returns 0x00 (0000ms, 0632ms total)
T2F20 002:437 JLINK_WriteReg(R15 (PC), 0x20000054)  returns 0x00 (0000ms, 0632ms total)
T2F20 002:438 JLINK_WriteReg(XPSR, 0x01000000)  returns 0x00 (0000ms, 0632ms total)
T2F20 002:438 JLINK_WriteReg(MSP, 0x20001000)  returns 0x00 (0000ms, 0632ms total)
T2F20 002:438 JLINK_WriteReg(PSP, 0x20001000)  returns 0x00 (0000ms, 0632ms total)
T2F20 002:438 JLINK_WriteReg(CFBP, 0x00000000)  returns 0x00 (0000ms, 0632ms total)
T2F20 002:438 JLINK_SetBPEx(Addr = 0x20000000, Type = 0xFFFFFFF2) -- CPU_ReadMem(2 bytes @ 0x20000000)  returns 0x00000001 (0001ms, 0633ms total)
T2F20 002:439 JLINK_Go() -- CPU_WriteMem(2 bytes @ 0x20000000) -- CPU_ReadMem(4 bytes @ 0xE0001000) -- CPU_WriteMem(4 bytes @ 0xE0002008) -- CPU_WriteMem(4 bytes @ 0xE000200C) -- CPU_WriteMem(4 bytes @ 0xE0002010) -- CPU_WriteMem(4 bytes @ 0xE0002014) -- CPU_WriteMem(4 bytes @ 0xE0002018) -- CPU_WriteMem(4 bytes @ 0xE000201C) -- CPU_WriteMem(4 bytes @ 0xE0001004) (0007ms, 0640ms total)
T2F20 002:447 JLINK_IsHalted() -- CPU_ReadMem(2 bytes @ 0x20000000)  returns TRUE (0004ms, 0644ms total)
T2F20 002:451 JLINK_ReadReg(R15 (PC))  returns 0x20000000 (0000ms, 0640ms total)
T2F20 002:451 JLINK_ClrBPEx(BPHandle = 0x00000001)  returns 0x00 (0000ms, 0640ms total)
T2F20 002:451 JLINK_ReadReg(R0)  returns 0x00000000 (0000ms, 0640ms total)
T2F20 002:453 JLINK_WriteReg(R0, 0x08000000)  returns 0x00 (0001ms, 0641ms total)
T2F20 002:454 JLINK_WriteReg(R1, 0x00004000)  returns 0x00 (0000ms, 0641ms total)
T2F20 002:454 JLINK_WriteReg(R2, 0x000000FF)  returns 0x00 (0000ms, 0641ms total)
T2F20 002:454 JLINK_WriteReg(R3, 0x00000000)  returns 0x00 (0000ms, 0641ms total)
T2F20 002:454 JLINK_WriteReg(R4, 0x00000000)  returns 0x00 (0000ms, 0641ms total)
T2F20 002:454 JLINK_WriteReg(R5, 0x00000000)  returns 0x00 (0000ms, 0641ms total)
T2F20 002:454 JLINK_WriteReg(R6, 0x00000000)  returns 0x00 (0000ms, 0641ms total)
T2F20 002:454 JLINK_WriteReg(R7, 0x00000000)  returns 0x00 (0000ms, 0641ms total)
T2F20 002:454 JLINK_WriteReg(R8, 0x00000000)  returns 0x00 (0000ms, 0641ms total)
T2F20 002:454 JLINK_WriteReg(R9, 0x2000017C)  returns 0x00 (0000ms, 0641ms total)
T2F20 002:454 JLINK_WriteReg(R10, 0x00000000)  returns 0x00 (0000ms, 0641ms total)
T2F20 002:454 JLINK_WriteReg(R11, 0x00000000)  returns 0x00 (0000ms, 0641ms total)
T2F20 002:454 JLINK_WriteReg(R12, 0x00000000)  returns 0x00 (0001ms, 0642ms total)
T2F20 002:455 JLINK_WriteReg(R13 (SP), 0x20001000)  returns 0x00 (0000ms, 0642ms total)
T2F20 002:455 JLINK_WriteReg(R14, 0x20000001)  returns 0x00 (0000ms, 0642ms total)
T2F20 002:455 JLINK_WriteReg(R15 (PC), 0x20000020)  returns 0x00 (0000ms, 0642ms total)
T2F20 002:455 JLINK_WriteReg(XPSR, 0x01000000)  returns 0x00 (0000ms, 0642ms total)
T2F20 002:455 JLINK_WriteReg(MSP, 0x20001000)  returns 0x00 (0000ms, 0642ms total)
T2F20 002:455 JLINK_WriteReg(PSP, 0x20001000)  returns 0x00 (0000ms, 0642ms total)
T2F20 002:455 JLINK_WriteReg(CFBP, 0x00000000)  returns 0x00 (0000ms, 0642ms total)
T2F20 002:455 JLINK_SetBPEx(Addr = 0x20000000, Type = 0xFFFFFFF2)  returns 0x00000002 (0000ms, 0642ms total)
T2F20 002:455 JLINK_Go() -- CPU_ReadMem(4 bytes @ 0xE0001000) (0004ms, 0646ms total)
T2F20 002:459 JLINK_IsHalted() -- CPU_ReadMem(2 bytes @ 0x20000000)  returns TRUE (0023ms, 0669ms total)
T2F20 002:482 JLINK_ReadReg(R15 (PC))  returns 0x20000000 (0000ms, 0646ms total)
T2F20 002:482 JLINK_ClrBPEx(BPHandle = 0x00000002)  returns 0x00 (0000ms, 0646ms total)
T2F20 002:482 JLINK_ReadReg(R0)  returns 0x00000001 (0000ms, 0646ms total)
T2F20 002:482 JLINK_WriteReg(R0, 0x08000000)  returns 0x00 (0000ms, 0646ms total)
T2F20 002:482 JLINK_WriteReg(R1, 0x00004000)  returns 0x00 (0000ms, 0646ms total)
T2F20 002:482 JLINK_WriteReg(R2, 0x000000FF)  returns 0x00 (0000ms, 0646ms total)
T2F20 002:482 JLINK_WriteReg(R3, 0x00000000)  returns 0x00 (0000ms, 0646ms total)
T2F20 002:482 JLINK_WriteReg(R4, 0x00000000)  returns 0x00 (0000ms, 0646ms total)
T2F20 002:482 JLINK_WriteReg(R5, 0x00000000)  returns 0x00 (0000ms, 0646ms total)
T2F20 002:482 JLINK_WriteReg(R6, 0x00000000)  returns 0x00 (0001ms, 0647ms total)
T2F20 002:483 JLINK_WriteReg(R7, 0x00000000)  returns 0x00 (0000ms, 0647ms total)
T2F20 002:483 JLINK_WriteReg(R8, 0x00000000)  returns 0x00 (0000ms, 0647ms total)
T2F20 002:483 JLINK_WriteReg(R9, 0x2000017C)  returns 0x00 (0000ms, 0647ms total)
T2F20 002:483 JLINK_WriteReg(R10, 0x00000000)  returns 0x00 (0000ms, 0647ms total)
T2F20 002:483 JLINK_WriteReg(R11, 0x00000000)  returns 0x00 (0000ms, 0647ms total)
T2F20 002:483 JLINK_WriteReg(R12, 0x00000000)  returns 0x00 (0000ms, 0647ms total)
T2F20 002:483 JLINK_WriteReg(R13 (SP), 0x20001000)  returns 0x00 (0000ms, 0647ms total)
T2F20 002:483 JLINK_WriteReg(R14, 0x20000001)  returns 0x00 (0000ms, 0647ms total)
T2F20 002:483 JLINK_WriteReg(R15 (PC), 0x200000BC)  returns 0x00 (0000ms, 0647ms total)
T2F20 002:483 JLINK_WriteReg(XPSR, 0x01000000)  returns 0x00 (0000ms, 0647ms total)
T2F20 002:483 JLINK_WriteReg(MSP, 0x20001000)  returns 0x00 (0000ms, 0647ms total)
T2F20 002:483 JLINK_WriteReg(PSP, 0x20001000)  returns 0x00 (0000ms, 0647ms total)
T2F20 002:483 JLINK_WriteReg(CFBP, 0x00000000)  returns 0x00 (0000ms, 0647ms total)
T2F20 002:483 JLINK_SetBPEx(Addr = 0x20000000, Type = 0xFFFFFFF2)  returns 0x00000003 (0000ms, 0647ms total)
T2F20 002:483 JLINK_Go() -- CPU_ReadMem(4 bytes @ 0xE0001000) (0004ms, 0651ms total)
T2F20 002:487 JLINK_IsHalted()  returns FALSE (0000ms, 0651ms total)
T2F20 002:626 JLINK_IsHalted()  returns FALSE (0000ms, 0651ms total)
T2F20 002:629 JLINK_IsHalted()  returns FALSE (0000ms, 0651ms total)
T2F20 002:631 JLINK_IsHalted()  returns FALSE (0000ms, 0651ms total)
T2F20 002:633 JLINK_IsHalted()  returns FALSE (0000ms, 0651ms total)
T2F20 002:652 JLINK_IsHalted()  returns FALSE (0000ms, 0651ms total)
T2F20 002:655 JLINK_IsHalted()  returns FALSE (0000ms, 0651ms total)
T2F20 002:657 JLINK_IsHalted()  returns FALSE (0000ms, 0651ms total)
T2F20 002:659 JLINK_IsHalted()  returns FALSE (0000ms, 0651ms total)
T2F20 002:681 JLINK_IsHalted()  returns FALSE (0000ms, 0651ms total)
T2F20 002:683 JLINK_IsHalted()  returns FALSE (0000ms, 0651ms total)
T2F20 002:685 JLINK_IsHalted()  returns FALSE (0000ms, 0651ms total)
T2F20 002:687 JLINK_IsHalted()  returns FALSE (0000ms, 0651ms total)
T2F20 002:690 JLINK_IsHalted()  returns FALSE (0000ms, 0651ms total)
T2F20 002:692 JLINK_IsHalted()  returns FALSE (0000ms, 0651ms total)
T2F20 002:697 JLINK_IsHalted()  returns FALSE (0000ms, 0651ms total)
T2F20 002:699 JLINK_IsHalted()  returns FALSE (0000ms, 0651ms total)
T2F20 002:701 JLINK_IsHalted()  returns FALSE (0000ms, 0651ms total)
T2F20 002:703 JLINK_IsHalted()  returns FALSE (0000ms, 0651ms total)
T2F20 002:705 JLINK_IsHalted()  returns FALSE (0000ms, 0651ms total)
T2F20 002:707 JLINK_IsHalted()  returns FALSE (0000ms, 0651ms total)
T2F20 002:709 JLINK_IsHalted()  returns FALSE (0000ms, 0651ms total)
T2F20 002:712 JLINK_IsHalted()  returns FALSE (0000ms, 0651ms total)
T2F20 002:714 JLINK_IsHalted()  returns FALSE (0000ms, 0651ms total)
T2F20 002:716 JLINK_IsHalted()  returns FALSE (0000ms, 0651ms total)
T2F20 002:718 JLINK_IsHalted()  returns FALSE (0000ms, 0651ms total)
T2F20 002:720 JLINK_IsHalted()  returns FALSE (0000ms, 0651ms total)
T2F20 002:722 JLINK_IsHalted()  returns FALSE (0000ms, 0651ms total)
T2F20 002:724 JLINK_IsHalted()  returns FALSE (0000ms, 0651ms total)
T2F20 002:730 JLINK_IsHalted()  returns FALSE (0000ms, 0651ms total)
T2F20 002:732 JLINK_IsHalted()  returns FALSE (0000ms, 0651ms total)
T2F20 002:738 JLINK_IsHalted()  returns FALSE (0000ms, 0651ms total)
T2F20 002:740 JLINK_IsHalted()  returns FALSE (0000ms, 0651ms total)
T2F20 002:743 JLINK_IsHalted()  returns FALSE (0000ms, 0651ms total)
T2F20 002:745 JLINK_IsHalted()  returns FALSE (0000ms, 0651ms total)
T2F20 002:758 JLINK_IsHalted()  returns FALSE (0001ms, 0652ms total)
T2F20 002:761 JLINK_IsHalted()  returns FALSE (0000ms, 0651ms total)
T2F20 002:764 JLINK_IsHalted()  returns FALSE (0000ms, 0651ms total)
T2F20 002:767 JLINK_IsHalted()  returns FALSE (0001ms, 0652ms total)
T2F20 002:776 JLINK_IsHalted()  returns FALSE (0000ms, 0651ms total)
T2F20 002:779 JLINK_IsHalted()  returns FALSE (0000ms, 0651ms total)
T2F20 002:789 JLINK_IsHalted()  returns FALSE (0000ms, 0651ms total)
T2F20 002:791 JLINK_IsHalted()  returns FALSE (0000ms, 0651ms total)
T2F20 002:793 JLINK_IsHalted()  returns FALSE (0000ms, 0651ms total)
T2F20 002:795 JLINK_IsHalted()  returns FALSE (0000ms, 0651ms total)
T2F20 002:797 JLINK_IsHalted()  returns FALSE (0000ms, 0651ms total)
T2F20 002:799 JLINK_IsHalted()  returns FALSE (0000ms, 0651ms total)
T2F20 002:817 JLINK_IsHalted()  returns FALSE (0000ms, 0651ms total)
T2F20 002:819 JLINK_IsHalted()  returns FALSE (0000ms, 0651ms total)
T2F20 002:821 JLINK_IsHalted()  returns FALSE (0000ms, 0651ms total)
T2F20 002:823 JLINK_IsHalted()  returns FALSE (0000ms, 0651ms total)
T2F20 002:825 JLINK_IsHalted()  returns FALSE (0000ms, 0651ms total)
T2F20 002:827 JLINK_IsHalted()  returns FALSE (0000ms, 0651ms total)
T2F20 002:829 JLINK_IsHalted()  returns FALSE (0000ms, 0651ms total)
T2F20 002:831 JLINK_IsHalted()  returns FALSE (0000ms, 0651ms total)
T2F20 002:834 JLINK_IsHalted()  returns FALSE (0000ms, 0651ms total)
T2F20 002:836 JLINK_IsHalted()  returns FALSE (0000ms, 0651ms total)
T2F20 002:838 JLINK_IsHalted()  returns FALSE (0000ms, 0651ms total)
T2F20 002:840 JLINK_IsHalted()  returns FALSE (0000ms, 0651ms total)
T2F20 002:842 JLINK_IsHalted() -- CPU_ReadMem(2 bytes @ 0x20000000)  returns TRUE (0003ms, 0654ms total)
T2F20 002:845 JLINK_ReadReg(R15 (PC))  returns 0x20000000 (0000ms, 0651ms total)
T2F20 002:845 JLINK_ClrBPEx(BPHandle = 0x00000003)  returns 0x00 (0001ms, 0652ms total)
T2F20 002:846 JLINK_ReadReg(R0)  returns 0x00000000 (0000ms, 0652ms total)
T2F20 002:847 JLINK_WriteReg(R0, 0x00000001)  returns 0x00 (0000ms, 0652ms total)
T2F20 002:847 JLINK_WriteReg(R1, 0x00004000)  returns 0x00 (0000ms, 0652ms total)
T2F20 002:847 JLINK_WriteReg(R2, 0x000000FF)  returns 0x00 (0000ms, 0652ms total)
T2F20 002:847 JLINK_WriteReg(R3, 0x00000000)  returns 0x00 (0000ms, 0652ms total)
T2F20 002:847 JLINK_WriteReg(R4, 0x00000000)  returns 0x00 (0000ms, 0652ms total)
T2F20 002:847 JLINK_WriteReg(R5, 0x00000000)  returns 0x00 (0000ms, 0652ms total)
T2F20 002:847 JLINK_WriteReg(R6, 0x00000000)  returns 0x00 (0000ms, 0652ms total)
T2F20 002:847 JLINK_WriteReg(R7, 0x00000000)  returns 0x00 (0000ms, 0652ms total)
T2F20 002:847 JLINK_WriteReg(R8, 0x00000000)  returns 0x00 (0000ms, 0652ms total)
T2F20 002:847 JLINK_WriteReg(R9, 0x2000017C)  returns 0x00 (0000ms, 0652ms total)
T2F20 002:848 JLINK_WriteReg(R10, 0x00000000)  returns 0x00 (0000ms, 0653ms total)
T2F20 002:848 JLINK_WriteReg(R11, 0x00000000)  returns 0x00 (0000ms, 0653ms total)
T2F20 002:848 JLINK_WriteReg(R12, 0x00000000)  returns 0x00 (0000ms, 0653ms total)
T2F20 002:848 JLINK_WriteReg(R13 (SP), 0x20001000)  returns 0x00 (0000ms, 0653ms total)
T2F20 002:848 JLINK_WriteReg(R14, 0x20000001)  returns 0x00 (0000ms, 0653ms total)
T2F20 002:848 JLINK_WriteReg(R15 (PC), 0x20000082)  returns 0x00 (0000ms, 0653ms total)
T2F20 002:848 JLINK_WriteReg(XPSR, 0x01000000)  returns 0x00 (0000ms, 0653ms total)
T2F20 002:848 JLINK_WriteReg(MSP, 0x20001000)  returns 0x00 (0000ms, 0653ms total)
T2F20 002:848 JLINK_WriteReg(PSP, 0x20001000)  returns 0x00 (0000ms, 0653ms total)
T2F20 002:848 JLINK_WriteReg(CFBP, 0x00000000)  returns 0x00 (0000ms, 0653ms total)
T2F20 002:848 JLINK_SetBPEx(Addr = 0x20000000, Type = 0xFFFFFFF2)  returns 0x00000004 (0000ms, 0653ms total)
T2F20 002:848 JLINK_Go() -- CPU_ReadMem(4 bytes @ 0xE0001000) (0004ms, 0657ms total)
T2F20 002:852 JLINK_IsHalted() -- CPU_ReadMem(2 bytes @ 0x20000000)  returns TRUE (0003ms, 0660ms total)
T2F20 002:855 JLINK_ReadReg(R15 (PC))  returns 0x20000000 (0000ms, 0657ms total)
T2F20 002:855 JLINK_ClrBPEx(BPHandle = 0x00000004)  returns 0x00 (0001ms, 0658ms total)
T2F20 002:856 JLINK_ReadReg(R0)  returns 0x00000000 (0000ms, 0658ms total)
T2F20 002:933 JLINK_WriteMem(0x20000000, 0x0180 Bytes, ...) - Data: 00 BE 0A E0 0D 78 2D 06 68 40 08 24 40 00 00 D3 ... -- CPU_WriteMem(384 bytes @ 0x20000000)  returns 0x180 (0005ms, 0663ms total)
T2F20 002:938 JLINK_WriteReg(R0, 0x08000000)  returns 0x00 (0000ms, 0663ms total)
T2F20 002:939 JLINK_WriteReg(R1, 0x00B71B00)  returns 0x00 (0000ms, 0664ms total)
T2F20 002:939 JLINK_WriteReg(R2, 0x00000002)  returns 0x00 (0000ms, 0664ms total)
T2F20 002:939 JLINK_WriteReg(R3, 0x00000000)  returns 0x00 (0000ms, 0664ms total)
T2F20 002:939 JLINK_WriteReg(R4, 0x00000000)  returns 0x00 (0000ms, 0664ms total)
T2F20 002:939 JLINK_WriteReg(R5, 0x00000000)  returns 0x00 (0000ms, 0664ms total)
T2F20 002:939 JLINK_WriteReg(R6, 0x00000000)  returns 0x00 (0000ms, 0664ms total)
T2F20 002:939 JLINK_WriteReg(R7, 0x00000000)  returns 0x00 (0000ms, 0664ms total)
T2F20 002:939 JLINK_WriteReg(R8, 0x00000000)  returns 0x00 (0000ms, 0664ms total)
T2F20 002:939 JLINK_WriteReg(R9, 0x2000017C)  returns 0x00 (0000ms, 0664ms total)
T2F20 002:939 JLINK_WriteReg(R10, 0x00000000)  returns 0x00 (0000ms, 0664ms total)
T2F20 002:939 JLINK_WriteReg(R11, 0x00000000)  returns 0x00 (0000ms, 0664ms total)
T2F20 002:939 JLINK_WriteReg(R12, 0x00000000)  returns 0x00 (0000ms, 0664ms total)
T2F20 002:939 JLINK_WriteReg(R13 (SP), 0x20001000)  returns 0x00 (0000ms, 0664ms total)
T2F20 002:939 JLINK_WriteReg(R14, 0x20000001)  returns 0x00 (0001ms, 0665ms total)
T2F20 002:940 JLINK_WriteReg(R15 (PC), 0x20000054)  returns 0x00 (0000ms, 0665ms total)
T2F20 002:940 JLINK_WriteReg(XPSR, 0x01000000)  returns 0x00 (0000ms, 0665ms total)
T2F20 002:940 JLINK_WriteReg(MSP, 0x20001000)  returns 0x00 (0000ms, 0665ms total)
T2F20 002:940 JLINK_WriteReg(PSP, 0x20001000)  returns 0x00 (0000ms, 0665ms total)
T2F20 002:940 JLINK_WriteReg(CFBP, 0x00000000)  returns 0x00 (0000ms, 0665ms total)
T2F20 002:940 JLINK_SetBPEx(Addr = 0x20000000, Type = 0xFFFFFFF2) -- CPU_ReadMem(2 bytes @ 0x20000000)  returns 0x00000005 (0001ms, 0666ms total)
T2F20 002:941 JLINK_Go() -- CPU_WriteMem(2 bytes @ 0x20000000) -- CPU_ReadMem(4 bytes @ 0xE0001000) (0004ms, 0670ms total)
T2F20 002:945 JLINK_IsHalted() -- CPU_ReadMem(2 bytes @ 0x20000000)  returns TRUE (0004ms, 0674ms total)
T2F20 002:949 JLINK_ReadReg(R15 (PC))  returns 0x20000000 (0001ms, 0671ms total)
T2F20 002:950 JLINK_ClrBPEx(BPHandle = 0x00000005)  returns 0x00 (0000ms, 0671ms total)
T2F20 002:950 JLINK_ReadReg(R0)  returns 0x00000000 (0000ms, 0671ms total)
T2F20 002:950 JLINK_WriteMem(0x20000180, 0x0280 Bytes, ...) - Data: 38 04 00 20 9D 01 00 08 A5 01 00 08 A7 01 00 08 ... -- CPU_WriteMem(640 bytes @ 0x20000180)  returns 0x280 (0008ms, 0679ms total)
T2F20 002:958 JLINK_WriteMem(0x20000400, 0x0180 Bytes, ...) - Data: 18 48 02 90 00 20 0D 90 4F F4 80 40 08 90 00 20 ... -- CPU_WriteMem(384 bytes @ 0x20000400)  returns 0x180 (0005ms, 0684ms total)
T2F20 002:963 JLINK_WriteReg(R0, 0x08000000)  returns 0x00 (0000ms, 0684ms total)
T2F20 002:963 JLINK_WriteReg(R1, 0x00000400)  returns 0x00 (0000ms, 0684ms total)
T2F20 002:963 JLINK_WriteReg(R2, 0x20000180)  returns 0x00 (0000ms, 0684ms total)
T2F20 002:963 JLINK_WriteReg(R3, 0x00000000)  returns 0x00 (0000ms, 0684ms total)
T2F20 002:963 JLINK_WriteReg(R4, 0x00000000)  returns 0x00 (0000ms, 0684ms total)
T2F20 002:963 JLINK_WriteReg(R5, 0x00000000)  returns 0x00 (0000ms, 0684ms total)
T2F20 002:963 JLINK_WriteReg(R6, 0x00000000)  returns 0x00 (0000ms, 0684ms total)
T2F20 002:963 JLINK_WriteReg(R7, 0x00000000)  returns 0x00 (0001ms, 0685ms total)
T2F20 002:964 JLINK_WriteReg(R8, 0x00000000)  returns 0x00 (0000ms, 0685ms total)
T2F20 002:964 JLINK_WriteReg(R9, 0x2000017C)  returns 0x00 (0000ms, 0685ms total)
T2F20 002:964 JLINK_WriteReg(R10, 0x00000000)  returns 0x00 (0000ms, 0685ms total)
T2F20 002:964 JLINK_WriteReg(R11, 0x00000000)  returns 0x00 (0000ms, 0685ms total)
T2F20 002:964 JLINK_WriteReg(R12, 0x00000000)  returns 0x00 (0000ms, 0685ms total)
T2F20 002:964 JLINK_WriteReg(R13 (SP), 0x20001000)  returns 0x00 (0000ms, 0685ms total)
T2F20 002:964 JLINK_WriteReg(R14, 0x20000001)  returns 0x00 (0000ms, 0685ms total)
T2F20 002:964 JLINK_WriteReg(R15 (PC), 0x20000108)  returns 0x00 (0000ms, 0685ms total)
T2F20 002:964 JLINK_WriteReg(XPSR, 0x01000000)  returns 0x00 (0000ms, 0685ms total)
T2F20 002:964 JLINK_WriteReg(MSP, 0x20001000)  returns 0x00 (0000ms, 0685ms total)
T2F20 002:964 JLINK_WriteReg(PSP, 0x20001000)  returns 0x00 (0000ms, 0685ms total)
T2F20 002:964 JLINK_WriteReg(CFBP, 0x00000000)  returns 0x00 (0000ms, 0685ms total)
T2F20 002:964 JLINK_SetBPEx(Addr = 0x20000000, Type = 0xFFFFFFF2)  returns 0x00000006 (0000ms, 0685ms total)
T2F20 002:964 JLINK_Go() -- CPU_ReadMem(4 bytes @ 0xE0001000) (0004ms, 0689ms total)
T2F20 002:968 JLINK_IsHalted()  returns FALSE (0000ms, 0689ms total)
T2F20 002:977 JLINK_IsHalted() -- CPU_ReadMem(2 bytes @ 0x20000000)  returns TRUE (0003ms, 0692ms total)
T2F20 002:980 JLINK_ReadReg(R15 (PC))  returns 0x20000000 (0000ms, 0689ms total)
T2F20 002:980 JLINK_ClrBPEx(BPHandle = 0x00000006)  returns 0x00 (0000ms, 0689ms total)
T2F20 002:980 JLINK_ReadReg(R0)  returns 0x00000000 (0000ms, 0689ms total)
T2F20 002:982 JLINK_WriteMem(0x20000180, 0x0280 Bytes, ...) - Data: 07 2A 0F DA 60 6B 56 1E 06 EB 86 07 1F 26 06 FA ... -- CPU_WriteMem(640 bytes @ 0x20000180)  returns 0x280 (0007ms, 0696ms total)
T2F20 002:989 JLINK_WriteMem(0x20000400, 0x0180 Bytes, ...) - Data: 14 32 12 68 8A 43 0F 4B 14 33 1A 60 02 89 01 2A ... -- CPU_WriteMem(384 bytes @ 0x20000400)  returns 0x180 (0005ms, 0701ms total)
T2F20 002:994 JLINK_WriteReg(R0, 0x08000400)  returns 0x00 (0000ms, 0701ms total)
T2F20 002:994 JLINK_WriteReg(R1, 0x00000400)  returns 0x00 (0000ms, 0701ms total)
T2F20 002:994 JLINK_WriteReg(R2, 0x20000180)  returns 0x00 (0000ms, 0701ms total)
T2F20 002:994 JLINK_WriteReg(R3, 0x00000000)  returns 0x00 (0000ms, 0701ms total)
T2F20 002:994 JLINK_WriteReg(R4, 0x00000000)  returns 0x00 (0000ms, 0701ms total)
T2F20 002:994 JLINK_WriteReg(R5, 0x00000000)  returns 0x00 (0000ms, 0701ms total)
T2F20 002:994 JLINK_WriteReg(R6, 0x00000000)  returns 0x00 (0000ms, 0701ms total)
T2F20 002:994 JLINK_WriteReg(R7, 0x00000000)  returns 0x00 (0000ms, 0701ms total)
T2F20 002:994 JLINK_WriteReg(R8, 0x00000000)  returns 0x00 (0000ms, 0701ms total)
T2F20 002:994 JLINK_WriteReg(R9, 0x2000017C)  returns 0x00 (0000ms, 0701ms total)
T2F20 002:994 JLINK_WriteReg(R10, 0x00000000)  returns 0x00 (0000ms, 0701ms total)
T2F20 002:994 JLINK_WriteReg(R11, 0x00000000)  returns 0x00 (0000ms, 0701ms total)
T2F20 002:994 JLINK_WriteReg(R12, 0x00000000)  returns 0x00 (0001ms, 0702ms total)
T2F20 002:995 JLINK_WriteReg(R13 (SP), 0x20001000)  returns 0x00 (0000ms, 0702ms total)
T2F20 002:995 JLINK_WriteReg(R14, 0x20000001)  returns 0x00 (0000ms, 0702ms total)
T2F20 002:995 JLINK_WriteReg(R15 (PC), 0x20000108)  returns 0x00 (0000ms, 0702ms total)
T2F20 002:995 JLINK_WriteReg(XPSR, 0x01000000)  returns 0x00 (0000ms, 0702ms total)
T2F20 002:995 JLINK_WriteReg(MSP, 0x20001000)  returns 0x00 (0000ms, 0702ms total)
T2F20 002:995 JLINK_WriteReg(PSP, 0x20001000)  returns 0x00 (0000ms, 0702ms total)
T2F20 002:995 JLINK_WriteReg(CFBP, 0x00000000)  returns 0x00 (0000ms, 0702ms total)
T2F20 002:995 JLINK_SetBPEx(Addr = 0x20000000, Type = 0xFFFFFFF2)  returns 0x00000007 (0000ms, 0702ms total)
T2F20 002:995 JLINK_Go() -- CPU_ReadMem(4 bytes @ 0xE0001000) (0003ms, 0705ms total)
T2F20 002:998 JLINK_IsHalted()  returns FALSE (0001ms, 0706ms total)
T2F20 003:001 JLINK_IsHalted()  returns FALSE (0000ms, 0705ms total)
T2F20 003:003 JLINK_IsHalted() -- CPU_ReadMem(2 bytes @ 0x20000000)  returns TRUE (0003ms, 0708ms total)
T2F20 003:006 JLINK_ReadReg(R15 (PC))  returns 0x20000000 (0000ms, 0705ms total)
T2F20 003:006 JLINK_ClrBPEx(BPHandle = 0x00000007)  returns 0x00 (0000ms, 0705ms total)
T2F20 003:006 JLINK_ReadReg(R0)  returns 0x00000000 (0000ms, 0705ms total)
T2F20 003:008 JLINK_WriteMem(0x20000180, 0x0280 Bytes, ...) - Data: 00 23 14 68 24 F0 02 04 14 60 14 68 44 F0 01 04 ... -- CPU_WriteMem(640 bytes @ 0x20000180)  returns 0x280 (0007ms, 0712ms total)
T2F20 003:015 JLINK_WriteMem(0x20000400, 0x0180 Bytes, ...) - Data: 02 F5 C0 74 04 EB 00 14 24 68 23 43 02 F5 C0 74 ... -- CPU_WriteMem(384 bytes @ 0x20000400)  returns 0x180 (0005ms, 0717ms total)
T2F20 003:020 JLINK_WriteReg(R0, 0x08000800)  returns 0x00 (0000ms, 0717ms total)
T2F20 003:020 JLINK_WriteReg(R1, 0x00000400)  returns 0x00 (0000ms, 0717ms total)
T2F20 003:020 JLINK_WriteReg(R2, 0x20000180)  returns 0x00 (0000ms, 0717ms total)
T2F20 003:020 JLINK_WriteReg(R3, 0x00000000)  returns 0x00 (0000ms, 0717ms total)
T2F20 003:020 JLINK_WriteReg(R4, 0x00000000)  returns 0x00 (0000ms, 0717ms total)
T2F20 003:020 JLINK_WriteReg(R5, 0x00000000)  returns 0x00 (0000ms, 0717ms total)
T2F20 003:020 JLINK_WriteReg(R6, 0x00000000)  returns 0x00 (0000ms, 0717ms total)
T2F20 003:020 JLINK_WriteReg(R7, 0x00000000)  returns 0x00 (0000ms, 0717ms total)
T2F20 003:020 JLINK_WriteReg(R8, 0x00000000)  returns 0x00 (0000ms, 0717ms total)
T2F20 003:020 JLINK_WriteReg(R9, 0x2000017C)  returns 0x00 (0000ms, 0717ms total)
T2F20 003:020 JLINK_WriteReg(R10, 0x00000000)  returns 0x00 (0000ms, 0717ms total)
T2F20 003:020 JLINK_WriteReg(R11, 0x00000000)  returns 0x00 (0000ms, 0717ms total)
T2F20 003:020 JLINK_WriteReg(R12, 0x00000000)  returns 0x00 (0000ms, 0717ms total)
T2F20 003:021 JLINK_WriteReg(R13 (SP), 0x20001000)  returns 0x00 (0000ms, 0717ms total)
T2F20 003:021 JLINK_WriteReg(R14, 0x20000001)  returns 0x00 (0000ms, 0717ms total)
T2F20 003:021 JLINK_WriteReg(R15 (PC), 0x20000108)  returns 0x00 (0000ms, 0717ms total)
T2F20 003:021 JLINK_WriteReg(XPSR, 0x01000000)  returns 0x00 (0000ms, 0717ms total)
T2F20 003:021 JLINK_WriteReg(MSP, 0x20001000)  returns 0x00 (0000ms, 0717ms total)
T2F20 003:021 JLINK_WriteReg(PSP, 0x20001000)  returns 0x00 (0000ms, 0717ms total)
T2F20 003:021 JLINK_WriteReg(CFBP, 0x00000000)  returns 0x00 (0000ms, 0717ms total)
T2F20 003:021 JLINK_SetBPEx(Addr = 0x20000000, Type = 0xFFFFFFF2)  returns 0x00000008 (0000ms, 0717ms total)
T2F20 003:021 JLINK_Go() -- CPU_ReadMem(4 bytes @ 0xE0001000) (0003ms, 0720ms total)
T2F20 003:024 JLINK_IsHalted()  returns FALSE (0001ms, 0721ms total)
T2F20 003:030 JLINK_IsHalted() -- CPU_ReadMem(2 bytes @ 0x20000000)  returns TRUE (0004ms, 0724ms total)
T2F20 003:034 JLINK_ReadReg(R15 (PC))  returns 0x20000000 (0000ms, 0720ms total)
T2F20 003:034 JLINK_ClrBPEx(BPHandle = 0x00000008)  returns 0x00 (0000ms, 0720ms total)
T2F20 003:034 JLINK_ReadReg(R0)  returns 0x00000000 (0000ms, 0720ms total)
T2F20 003:036 JLINK_WriteMem(0x20000180, 0x0280 Bytes, ...) - Data: 01 A8 00 F0 5B FB 0B B0 00 BD 00 00 00 0C 02 40 ... -- CPU_WriteMem(640 bytes @ 0x20000180)  returns 0x280 (0007ms, 0727ms total)
T2F20 003:043 JLINK_WriteMem(0x20000400, 0x0180 Bytes, ...) - Data: 00 F0 69 F9 10 B9 03 20 03 49 08 70 08 20 00 F0 ... -- CPU_WriteMem(384 bytes @ 0x20000400)  returns 0x180 (0005ms, 0732ms total)
T2F20 003:048 JLINK_WriteReg(R0, 0x08000C00)  returns 0x00 (0000ms, 0732ms total)
T2F20 003:048 JLINK_WriteReg(R1, 0x00000400)  returns 0x00 (0000ms, 0732ms total)
T2F20 003:048 JLINK_WriteReg(R2, 0x20000180)  returns 0x00 (0000ms, 0732ms total)
T2F20 003:048 JLINK_WriteReg(R3, 0x00000000)  returns 0x00 (0000ms, 0732ms total)
T2F20 003:048 JLINK_WriteReg(R4, 0x00000000)  returns 0x00 (0000ms, 0732ms total)
T2F20 003:049 JLINK_WriteReg(R5, 0x00000000)  returns 0x00 (0000ms, 0732ms total)
T2F20 003:049 JLINK_WriteReg(R6, 0x00000000)  returns 0x00 (0000ms, 0732ms total)
T2F20 003:049 JLINK_WriteReg(R7, 0x00000000)  returns 0x00 (0000ms, 0732ms total)
T2F20 003:049 JLINK_WriteReg(R8, 0x00000000)  returns 0x00 (0000ms, 0732ms total)
T2F20 003:049 JLINK_WriteReg(R9, 0x2000017C)  returns 0x00 (0000ms, 0732ms total)
T2F20 003:049 JLINK_WriteReg(R10, 0x00000000)  returns 0x00 (0000ms, 0732ms total)
T2F20 003:049 JLINK_WriteReg(R11, 0x00000000)  returns 0x00 (0000ms, 0732ms total)
T2F20 003:049 JLINK_WriteReg(R12, 0x00000000)  returns 0x00 (0000ms, 0732ms total)
T2F20 003:049 JLINK_WriteReg(R13 (SP), 0x20001000)  returns 0x00 (0000ms, 0732ms total)
T2F20 003:049 JLINK_WriteReg(R14, 0x20000001)  returns 0x00 (0000ms, 0732ms total)
T2F20 003:049 JLINK_WriteReg(R15 (PC), 0x20000108)  returns 0x00 (0000ms, 0732ms total)
T2F20 003:049 JLINK_WriteReg(XPSR, 0x01000000)  returns 0x00 (0000ms, 0732ms total)
T2F20 003:049 JLINK_WriteReg(MSP, 0x20001000)  returns 0x00 (0000ms, 0732ms total)
T2F20 003:049 JLINK_WriteReg(PSP, 0x20001000)  returns 0x00 (0000ms, 0732ms total)
T2F20 003:049 JLINK_WriteReg(CFBP, 0x00000000)  returns 0x00 (0000ms, 0732ms total)
T2F20 003:049 JLINK_SetBPEx(Addr = 0x20000000, Type = 0xFFFFFFF2)  returns 0x00000009 (0001ms, 0733ms total)
T2F20 003:050 JLINK_Go() -- CPU_ReadMem(4 bytes @ 0xE0001000) (0003ms, 0736ms total)
T2F20 003:053 JLINK_IsHalted()  returns FALSE (0001ms, 0737ms total)
T2F20 003:056 JLINK_IsHalted()  returns FALSE (0000ms, 0736ms total)
T2F20 003:058 JLINK_IsHalted() -- CPU_ReadMem(2 bytes @ 0x20000000)  returns TRUE (0003ms, 0739ms total)
T2F20 003:061 JLINK_ReadReg(R15 (PC))  returns 0x20000000 (0000ms, 0736ms total)
T2F20 003:061 JLINK_ClrBPEx(BPHandle = 0x00000009)  returns 0x00 (0000ms, 0736ms total)
T2F20 003:062 JLINK_ReadReg(R0)  returns 0x00000000 (0000ms, 0737ms total)
T2F20 003:063 JLINK_WriteMem(0x20000180, 0x0280 Bytes, ...) - Data: FF F7 74 FF 06 20 8D F8 00 00 01 20 8D F8 03 00 ... -- CPU_WriteMem(640 bytes @ 0x20000180)  returns 0x280 (0008ms, 0745ms total)
T2F20 003:071 JLINK_WriteMem(0x20000400, 0x0180 Bytes, ...) - Data: 00 10 02 40 00 14 02 40 1C B5 01 21 20 20 00 F0 ... -- CPU_WriteMem(384 bytes @ 0x20000400)  returns 0x180 (0004ms, 0749ms total)
T2F20 003:075 JLINK_WriteReg(R0, 0x08001000)  returns 0x00 (0001ms, 0750ms total)
T2F20 003:076 JLINK_WriteReg(R1, 0x00000400)  returns 0x00 (0000ms, 0750ms total)
T2F20 003:076 JLINK_WriteReg(R2, 0x20000180)  returns 0x00 (0000ms, 0750ms total)
T2F20 003:076 JLINK_WriteReg(R3, 0x00000000)  returns 0x00 (0000ms, 0750ms total)
T2F20 003:076 JLINK_WriteReg(R4, 0x00000000)  returns 0x00 (0000ms, 0750ms total)
T2F20 003:076 JLINK_WriteReg(R5, 0x00000000)  returns 0x00 (0000ms, 0750ms total)
T2F20 003:076 JLINK_WriteReg(R6, 0x00000000)  returns 0x00 (0000ms, 0750ms total)
T2F20 003:076 JLINK_WriteReg(R7, 0x00000000)  returns 0x00 (0000ms, 0750ms total)
T2F20 003:076 JLINK_WriteReg(R8, 0x00000000)  returns 0x00 (0000ms, 0750ms total)
T2F20 003:076 JLINK_WriteReg(R9, 0x2000017C)  returns 0x00 (0000ms, 0750ms total)
T2F20 003:076 JLINK_WriteReg(R10, 0x00000000)  returns 0x00 (0000ms, 0750ms total)
T2F20 003:076 JLINK_WriteReg(R11, 0x00000000)  returns 0x00 (0000ms, 0750ms total)
T2F20 003:077 JLINK_WriteReg(R12, 0x00000000)  returns 0x00 (0000ms, 0751ms total)
T2F20 003:077 JLINK_WriteReg(R13 (SP), 0x20001000)  returns 0x00 (0000ms, 0751ms total)
T2F20 003:077 JLINK_WriteReg(R14, 0x20000001)  returns 0x00 (0000ms, 0751ms total)
T2F20 003:077 JLINK_WriteReg(R15 (PC), 0x20000108)  returns 0x00 (0000ms, 0751ms total)
T2F20 003:077 JLINK_WriteReg(XPSR, 0x01000000)  returns 0x00 (0000ms, 0751ms total)
T2F20 003:077 JLINK_WriteReg(MSP, 0x20001000)  returns 0x00 (0000ms, 0751ms total)
T2F20 003:077 JLINK_WriteReg(PSP, 0x20001000)  returns 0x00 (0001ms, 0752ms total)
T2F20 003:078 JLINK_WriteReg(CFBP, 0x00000000)  returns 0x00 (0000ms, 0752ms total)
T2F20 003:078 JLINK_SetBPEx(Addr = 0x20000000, Type = 0xFFFFFFF2)  returns 0x0000000A (0000ms, 0752ms total)
T2F20 003:078 JLINK_Go() -- CPU_ReadMem(4 bytes @ 0xE0001000) (0004ms, 0756ms total)
T2F20 003:082 JLINK_IsHalted()  returns FALSE (0000ms, 0756ms total)
T2F20 003:088 JLINK_IsHalted() -- CPU_ReadMem(2 bytes @ 0x20000000)  returns TRUE (0003ms, 0759ms total)
T2F20 003:091 JLINK_ReadReg(R15 (PC))  returns 0x20000000 (0000ms, 0756ms total)
T2F20 003:091 JLINK_ClrBPEx(BPHandle = 0x0000000A)  returns 0x00 (0000ms, 0756ms total)
T2F20 003:091 JLINK_ReadReg(R0)  returns 0x00000000 (0000ms, 0756ms total)
T2F20 003:094 JLINK_WriteMem(0x20000180, 0x0280 Bytes, ...) - Data: 70 47 00 00 30 38 02 40 29 B1 06 4A 12 68 02 43 ... -- CPU_WriteMem(640 bytes @ 0x20000180)  returns 0x280 (0007ms, 0763ms total)
T2F20 003:101 JLINK_WriteMem(0x20000400, 0x0180 Bytes, ...) - Data: 08 31 08 60 08 46 00 68 40 F0 02 00 08 60 00 BF ... -- CPU_WriteMem(384 bytes @ 0x20000400)  returns 0x180 (0005ms, 0768ms total)
T2F20 003:106 JLINK_WriteReg(R0, 0x08001400)  returns 0x00 (0000ms, 0768ms total)
T2F20 003:106 JLINK_WriteReg(R1, 0x00000400)  returns 0x00 (0000ms, 0768ms total)
T2F20 003:106 JLINK_WriteReg(R2, 0x20000180)  returns 0x00 (0000ms, 0768ms total)
T2F20 003:106 JLINK_WriteReg(R3, 0x00000000)  returns 0x00 (0000ms, 0768ms total)
T2F20 003:106 JLINK_WriteReg(R4, 0x00000000)  returns 0x00 (0000ms, 0768ms total)
T2F20 003:106 JLINK_WriteReg(R5, 0x00000000)  returns 0x00 (0000ms, 0768ms total)
T2F20 003:106 JLINK_WriteReg(R6, 0x00000000)  returns 0x00 (0000ms, 0768ms total)
T2F20 003:106 JLINK_WriteReg(R7, 0x00000000)  returns 0x00 (0000ms, 0768ms total)
T2F20 003:106 JLINK_WriteReg(R8, 0x00000000)  returns 0x00 (0000ms, 0768ms total)
T2F20 003:106 JLINK_WriteReg(R9, 0x2000017C)  returns 0x00 (0000ms, 0768ms total)
T2F20 003:106 JLINK_WriteReg(R10, 0x00000000)  returns 0x00 (0001ms, 0769ms total)
T2F20 003:107 JLINK_WriteReg(R11, 0x00000000)  returns 0x00 (0000ms, 0769ms total)
T2F20 003:107 JLINK_WriteReg(R12, 0x00000000)  returns 0x00 (0000ms, 0769ms total)
T2F20 003:107 JLINK_WriteReg(R13 (SP), 0x20001000)  returns 0x00 (0000ms, 0769ms total)
T2F20 003:107 JLINK_WriteReg(R14, 0x20000001)  returns 0x00 (0000ms, 0769ms total)
T2F20 003:107 JLINK_WriteReg(R15 (PC), 0x20000108)  returns 0x00 (0000ms, 0769ms total)
T2F20 003:107 JLINK_WriteReg(XPSR, 0x01000000)  returns 0x00 (0000ms, 0769ms total)
T2F20 003:107 JLINK_WriteReg(MSP, 0x20001000)  returns 0x00 (0000ms, 0769ms total)
T2F20 003:107 JLINK_WriteReg(PSP, 0x20001000)  returns 0x00 (0000ms, 0769ms total)
T2F20 003:107 JLINK_WriteReg(CFBP, 0x00000000)  returns 0x00 (0000ms, 0769ms total)
T2F20 003:107 JLINK_SetBPEx(Addr = 0x20000000, Type = 0xFFFFFFF2)  returns 0x0000000B (0000ms, 0769ms total)
T2F20 003:107 JLINK_Go() -- CPU_ReadMem(4 bytes @ 0xE0001000) (0004ms, 0773ms total)
T2F20 003:111 JLINK_IsHalted()  returns FALSE (0001ms, 0774ms total)
T2F20 003:115 JLINK_IsHalted()  returns FALSE (0000ms, 0773ms total)
T2F20 003:117 JLINK_IsHalted() -- CPU_ReadMem(2 bytes @ 0x20000000)  returns TRUE (0003ms, 0776ms total)
T2F20 003:120 JLINK_ReadReg(R15 (PC))  returns 0x20000000 (0000ms, 0773ms total)
T2F20 003:120 JLINK_ClrBPEx(BPHandle = 0x0000000B)  returns 0x00 (0001ms, 0774ms total)
T2F20 003:121 JLINK_ReadReg(R0)  returns 0x00000000 (0000ms, 0774ms total)
T2F20 003:122 JLINK_WriteMem(0x20000180, 0x0280 Bytes, ...) - Data: 4F F6 8F 75 2C 40 B5 1E 2C 40 0D 88 2C 43 75 1E ... -- CPU_WriteMem(640 bytes @ 0x20000180)  returns 0x280 (0007ms, 0781ms total)
T2F20 003:129 JLINK_WriteMem(0x20000400, 0x0180 Bytes, ...) - Data: 6A 17 B9 42 00 D1 00 BF 18 46 C1 F3 42 14 01 F0 ... -- CPU_WriteMem(384 bytes @ 0x20000400)  returns 0x180 (0005ms, 0786ms total)
T2F20 003:134 JLINK_WriteReg(R0, 0x08001800)  returns 0x00 (0000ms, 0786ms total)
T2F20 003:134 JLINK_WriteReg(R1, 0x00000400)  returns 0x00 (0000ms, 0786ms total)
T2F20 003:134 JLINK_WriteReg(R2, 0x20000180)  returns 0x00 (0000ms, 0786ms total)
T2F20 003:134 JLINK_WriteReg(R3, 0x00000000)  returns 0x00 (0000ms, 0786ms total)
T2F20 003:134 JLINK_WriteReg(R4, 0x00000000)  returns 0x00 (0000ms, 0786ms total)
T2F20 003:134 JLINK_WriteReg(R5, 0x00000000)  returns 0x00 (0000ms, 0786ms total)
T2F20 003:134 JLINK_WriteReg(R6, 0x00000000)  returns 0x00 (0001ms, 0787ms total)
T2F20 003:135 JLINK_WriteReg(R7, 0x00000000)  returns 0x00 (0000ms, 0787ms total)
T2F20 003:135 JLINK_WriteReg(R8, 0x00000000)  returns 0x00 (0000ms, 0787ms total)
T2F20 003:135 JLINK_WriteReg(R9, 0x2000017C)  returns 0x00 (0000ms, 0787ms total)
T2F20 003:135 JLINK_WriteReg(R10, 0x00000000)  returns 0x00 (0000ms, 0787ms total)
T2F20 003:135 JLINK_WriteReg(R11, 0x00000000)  returns 0x00 (0000ms, 0787ms total)
T2F20 003:135 JLINK_WriteReg(R12, 0x00000000)  returns 0x00 (0000ms, 0787ms total)
T2F20 003:135 JLINK_WriteReg(R13 (SP), 0x20001000)  returns 0x00 (0000ms, 0787ms total)
T2F20 003:135 JLINK_WriteReg(R14, 0x20000001)  returns 0x00 (0000ms, 0787ms total)
T2F20 003:135 JLINK_WriteReg(R15 (PC), 0x20000108)  returns 0x00 (0000ms, 0787ms total)
T2F20 003:135 JLINK_WriteReg(XPSR, 0x01000000)  returns 0x00 (0000ms, 0787ms total)
T2F20 003:135 JLINK_WriteReg(MSP, 0x20001000)  returns 0x00 (0000ms, 0787ms total)
T2F20 003:135 JLINK_WriteReg(PSP, 0x20001000)  returns 0x00 (0000ms, 0787ms total)
T2F20 003:135 JLINK_WriteReg(CFBP, 0x00000000)  returns 0x00 (0000ms, 0787ms total)
T2F20 003:135 JLINK_SetBPEx(Addr = 0x20000000, Type = 0xFFFFFFF2)  returns 0x0000000C (0000ms, 0787ms total)
T2F20 003:135 JLINK_Go() -- CPU_ReadMem(4 bytes @ 0xE0001000) (0004ms, 0791ms total)
T2F20 003:139 JLINK_IsHalted()  returns FALSE (0001ms, 0792ms total)
T2F20 003:145 JLINK_IsHalted() -- CPU_ReadMem(2 bytes @ 0x20000000)  returns TRUE (0003ms, 0794ms total)
T2F20 003:148 JLINK_ReadReg(R15 (PC))  returns 0x20000000 (0000ms, 0791ms total)
T2F20 003:148 JLINK_ClrBPEx(BPHandle = 0x0000000C)  returns 0x00 (0001ms, 0792ms total)
T2F20 003:149 JLINK_ReadReg(R0)  returns 0x00000000 (0000ms, 0792ms total)
T2F20 003:151 JLINK_WriteMem(0x20000180, 0x0280 Bytes, ...) - Data: 01 C1 12 1F 00 2A FB D1 70 47 08 B5 4F F4 7A 70 ... -- CPU_WriteMem(640 bytes @ 0x20000180)  returns 0x280 (0008ms, 0800ms total)
T2F20 003:159 JLINK_WriteMem(0x20000400, 0x0180 Bytes, ...) - Data: FF FF FF FF FF FF FF FF FF FF FF FF FF FF FF FF ... -- CPU_WriteMem(384 bytes @ 0x20000400)  returns 0x180 (0005ms, 0805ms total)
T2F20 003:164 JLINK_WriteReg(R0, 0x08001C00)  returns 0x00 (0000ms, 0805ms total)
T2F20 003:164 JLINK_WriteReg(R1, 0x000000D8)  returns 0x00 (0001ms, 0806ms total)
T2F20 003:165 JLINK_WriteReg(R2, 0x20000180)  returns 0x00 (0000ms, 0806ms total)
T2F20 003:165 JLINK_WriteReg(R3, 0x00000000)  returns 0x00 (0000ms, 0806ms total)
T2F20 003:165 JLINK_WriteReg(R4, 0x00000000)  returns 0x00 (0000ms, 0806ms total)
T2F20 003:165 JLINK_WriteReg(R5, 0x00000000)  returns 0x00 (0000ms, 0806ms total)
T2F20 003:165 JLINK_WriteReg(R6, 0x00000000)  returns 0x00 (0000ms, 0806ms total)
T2F20 003:165 JLINK_WriteReg(R7, 0x00000000)  returns 0x00 (0000ms, 0806ms total)
T2F20 003:165 JLINK_WriteReg(R8, 0x00000000)  returns 0x00 (0000ms, 0806ms total)
T2F20 003:165 JLINK_WriteReg(R9, 0x2000017C)  returns 0x00 (0000ms, 0806ms total)
T2F20 003:165 JLINK_WriteReg(R10, 0x00000000)  returns 0x00 (0000ms, 0806ms total)
T2F20 003:165 JLINK_WriteReg(R11, 0x00000000)  returns 0x00 (0000ms, 0806ms total)
T2F20 003:165 JLINK_WriteReg(R12, 0x00000000)  returns 0x00 (0000ms, 0806ms total)
T2F20 003:165 JLINK_WriteReg(R13 (SP), 0x20001000)  returns 0x00 (0000ms, 0806ms total)
T2F20 003:166 JLINK_WriteReg(R14, 0x20000001)  returns 0x00 (0000ms, 0807ms total)
T2F20 003:166 JLINK_WriteReg(R15 (PC), 0x20000108)  returns 0x00 (0000ms, 0807ms total)
T2F20 003:166 JLINK_WriteReg(XPSR, 0x01000000)  returns 0x00 (0000ms, 0807ms total)
T2F20 003:166 JLINK_WriteReg(MSP, 0x20001000)  returns 0x00 (0000ms, 0807ms total)
T2F20 003:166 JLINK_WriteReg(PSP, 0x20001000)  returns 0x00 (0000ms, 0807ms total)
T2F20 003:166 JLINK_WriteReg(CFBP, 0x00000000)  returns 0x00 (0000ms, 0807ms total)
T2F20 003:166 JLINK_SetBPEx(Addr = 0x20000000, Type = 0xFFFFFFF2)  returns 0x0000000D (0000ms, 0807ms total)
T2F20 003:166 JLINK_Go() -- CPU_ReadMem(4 bytes @ 0xE0001000) (0004ms, 0811ms total)
T2F20 003:170 JLINK_IsHalted()  returns FALSE (0000ms, 0811ms total)
T2F20 003:176 JLINK_IsHalted() -- CPU_ReadMem(2 bytes @ 0x20000000)  returns TRUE (0003ms, 0814ms total)
T2F20 003:179 JLINK_ReadReg(R15 (PC))  returns 0x20000000 (0000ms, 0811ms total)
T2F20 003:179 JLINK_ClrBPEx(BPHandle = 0x0000000D)  returns 0x00 (0000ms, 0811ms total)
T2F20 003:180 JLINK_ReadReg(R0)  returns 0x00000000 (0000ms, 0812ms total)
T2F20 003:180 JLINK_WriteReg(R0, 0x00000002)  returns 0x00 (0000ms, 0812ms total)
T2F20 003:180 JLINK_WriteReg(R1, 0x000000D8)  returns 0x00 (0000ms, 0812ms total)
T2F20 003:180 JLINK_WriteReg(R2, 0x20000180)  returns 0x00 (0000ms, 0812ms total)
T2F20 003:180 JLINK_WriteReg(R3, 0x00000000)  returns 0x00 (0000ms, 0812ms total)
T2F20 003:180 JLINK_WriteReg(R4, 0x00000000)  returns 0x00 (0000ms, 0812ms total)
T2F20 003:180 JLINK_WriteReg(R5, 0x00000000)  returns 0x00 (0000ms, 0812ms total)
T2F20 003:180 JLINK_WriteReg(R6, 0x00000000)  returns 0x00 (0000ms, 0812ms total)
T2F20 003:180 JLINK_WriteReg(R7, 0x00000000)  returns 0x00 (0000ms, 0812ms total)
T2F20 003:180 JLINK_WriteReg(R8, 0x00000000)  returns 0x00 (0000ms, 0812ms total)
T2F20 003:180 JLINK_WriteReg(R9, 0x2000017C)  returns 0x00 (0000ms, 0812ms total)
T2F20 003:180 JLINK_WriteReg(R10, 0x00000000)  returns 0x00 (0000ms, 0812ms total)
T2F20 003:180 JLINK_WriteReg(R11, 0x00000000)  returns 0x00 (0000ms, 0812ms total)
T2F20 003:180 JLINK_WriteReg(R12, 0x00000000)  returns 0x00 (0000ms, 0812ms total)
T2F20 003:180 JLINK_WriteReg(R13 (SP), 0x20001000)  returns 0x00 (0000ms, 0812ms total)
T2F20 003:180 JLINK_WriteReg(R14, 0x20000001)  returns 0x00 (0000ms, 0812ms total)
T2F20 003:180 JLINK_WriteReg(R15 (PC), 0x20000082)  returns 0x00 (0000ms, 0812ms total)
T2F20 003:180 JLINK_WriteReg(XPSR, 0x01000000)  returns 0x00 (0000ms, 0812ms total)
T2F20 003:180 JLINK_WriteReg(MSP, 0x20001000)  returns 0x00 (0000ms, 0812ms total)
T2F20 003:180 JLINK_WriteReg(PSP, 0x20001000)  returns 0x00 (0000ms, 0812ms total)
T2F20 003:181 JLINK_WriteReg(CFBP, 0x00000000)  returns 0x00 (0000ms, 0813ms total)
T2F20 003:181 JLINK_SetBPEx(Addr = 0x20000000, Type = 0xFFFFFFF2)  returns 0x0000000E (0000ms, 0813ms total)
T2F20 003:181 JLINK_Go() -- CPU_ReadMem(4 bytes @ 0xE0001000) (0002ms, 0815ms total)
T2F20 003:183 JLINK_IsHalted() -- CPU_ReadMem(2 bytes @ 0x20000000)  returns TRUE (0004ms, 0819ms total)
T2F20 003:187 JLINK_ReadReg(R15 (PC))  returns 0x20000000 (0000ms, 0815ms total)
T2F20 003:187 JLINK_ClrBPEx(BPHandle = 0x0000000E)  returns 0x00 (0000ms, 0815ms total)
T2F20 003:187 JLINK_ReadReg(R0)  returns 0x00000000 (0000ms, 0815ms total)
T2F20 003:261 JLINK_WriteMem(0x20000000, 0x0180 Bytes, ...) - Data: 00 BE 0A E0 0D 78 2D 06 68 40 08 24 40 00 00 D3 ... -- CPU_WriteMem(384 bytes @ 0x20000000)  returns 0x180 (0005ms, 0820ms total)
T2F20 003:266 JLINK_WriteReg(R0, 0x08000000)  returns 0x00 (0000ms, 0820ms total)
T2F20 003:266 JLINK_WriteReg(R1, 0x00B71B00)  returns 0x00 (0000ms, 0820ms total)
